!Agilent Technologies,E8363B,MY43030648,A.07.50.48
!Agilent E8363B: A.07.50.48
!Date: Wednesday, September 16, 2020 08:10:19
!Correction: S11(Full 2 Port(1,2)) 
!S21(Full 2 Port(1,2)) 
!S12(Full 2 Port(1,2)) 
!S22(Full 2 Port(1,2)) 
!S2P File: Measurements: S11, S21, S12, S22:
# Hz S  dB   R 50
10000000 -4.306487e+001 -6.483405e+001 -9.384376e-003 -2.117129e-001 -1.366777e-003 -2.527486e-001 -4.353798e+001 -9.961874e+001
10999500 -4.221685e+001 -7.611327e+001 -1.522046e-003 -2.828169e-001 8.831815e-003 -3.010024e-001 -4.230884e+001 -1.066715e+002
11999000 -4.184441e+001 -7.456760e+001 -2.516773e-003 -3.536173e-001 9.139920e-003 -3.810855e-001 -4.227798e+001 -1.074652e+002
12998500 -4.091018e+001 -7.928132e+001 -1.298883e-003 -3.948515e-001 1.101051e-002 -4.253150e-001 -4.148600e+001 -1.115174e+002
13998000 -4.037673e+001 -8.060502e+001 6.009094e-004 -4.227576e-001 1.356951e-002 -4.579149e-001 -4.066061e+001 -1.137621e+002
14997500 -4.005102e+001 -8.184386e+001 1.896348e-003 -4.601986e-001 1.562408e-002 -4.983781e-001 -4.009800e+001 -1.158149e+002
15997000 -3.967918e+001 -8.323495e+001 3.926009e-003 -5.107879e-001 1.835275e-002 -5.514464e-001 -3.948019e+001 -1.196062e+002
16996500 -3.925460e+001 -8.348259e+001 7.749593e-003 -5.562649e-001 2.211781e-002 -6.005858e-001 -3.886051e+001 -1.229448e+002
17996000 -3.884470e+001 -8.317211e+001 1.210288e-002 -5.988266e-001 2.714751e-002 -6.469259e-001 -3.835948e+001 -1.249289e+002
18995500 -3.850919e+001 -8.270678e+001 1.310272e-002 -6.174420e-001 3.285710e-002 -7.106232e-001 -3.796426e+001 -1.276368e+002
19995000 -3.824598e+001 -8.235976e+001 1.962133e-002 -6.880347e-001 3.471713e-002 -7.481552e-001 -3.759267e+001 -1.282152e+002
20994500 -3.799765e+001 -8.205468e+001 2.187256e-002 -7.321354e-001 4.093683e-002 -8.336160e-001 -3.729272e+001 -1.332246e+002
21994000 -3.763227e+001 -8.233612e+001 2.972829e-002 -8.199899e-001 4.399309e-002 -8.900080e-001 -3.698216e+001 -1.358531e+002
22993500 -3.754351e+001 -8.339503e+001 2.497117e-002 -8.160197e-001 4.363764e-002 -9.243564e-001 -3.656015e+001 -1.380993e+002
23993000 -3.695916e+001 -8.250547e+001 3.049959e-002 -8.912776e-001 4.486221e-002 -9.673892e-001 -3.622551e+001 -1.418329e+002
24992500 -3.662481e+001 -8.240143e+001 3.332038e-002 -9.385522e-001 5.206731e-002 -1.053785e+000 -3.599082e+001 -1.425325e+002
25992000 -3.630305e+001 -8.199995e+001 4.006352e-002 -1.010137e+000 5.354427e-002 -1.096072e+000 -3.568149e+001 -1.447140e+002
26991500 -3.604535e+001 -8.191702e+001 4.178386e-002 -1.053561e+000 5.905753e-002 -1.172564e+000 -3.545319e+001 -1.467071e+002
27991000 -3.579258e+001 -8.149557e+001 4.726468e-002 -1.125907e+000 6.039384e-002 -1.218151e+000 -3.522240e+001 -1.487587e+002
28990500 -3.555409e+001 -8.110769e+001 5.165454e-002 -1.188443e+000 6.379253e-002 -1.281310e+000 -3.503107e+001 -1.507672e+002
29990000 -3.533858e+001 -8.102346e+001 5.483261e-002 -1.250163e+000 6.676184e-002 -1.345071e+000 -3.487311e+001 -1.529382e+002
30989500 -3.515881e+001 -8.059460e+001 5.839792e-002 -1.312353e+000 7.033368e-002 -1.410435e+000 -3.467349e+001 -1.555190e+002
31989000 -3.500285e+001 -8.034359e+001 6.178404e-002 -1.378797e+000 7.306077e-002 -1.479669e+000 -3.468542e+001 -1.575737e+002
32988500 -3.486232e+001 -8.011571e+001 6.555846e-002 -1.445096e+000 7.595080e-002 -1.547649e+000 -3.467275e+001 -1.589951e+002
33988000 -3.478534e+001 -7.962555e+001 6.942584e-002 -1.519732e+000 7.865983e-002 -1.620310e+000 -3.464958e+001 -1.590589e+002
34987500 -3.476031e+001 -7.855541e+001 7.148783e-002 -1.580564e+000 8.163161e-002 -1.688398e+000 -3.408285e+001 -1.592852e+002
35987000 -3.441020e+001 -7.688277e+001 7.488421e-002 -1.654601e+000 8.473253e-002 -1.755099e+000 -3.379031e+001 -1.625110e+002
36986500 -3.414718e+001 -7.723904e+001 7.840642e-002 -1.715233e+000 8.738418e-002 -1.816544e+000 -3.365784e+001 -1.650111e+002
37986000 -3.397821e+001 -7.722507e+001 8.100739e-002 -1.791091e+000 9.041910e-002 -1.892922e+000 -3.351155e+001 -1.671173e+002
38985500 -3.385507e+001 -7.710249e+001 8.476704e-002 -1.860720e+000 9.308159e-002 -1.965830e+000 -3.337937e+001 -1.690132e+002
39985000 -3.374233e+001 -7.689696e+001 8.808269e-002 -1.931320e+000 9.565002e-002 -2.036469e+000 -3.323408e+001 -1.707676e+002
40984500 -3.364030e+001 -7.650764e+001 9.043145e-002 -2.003868e+000 9.849461e-002 -2.107697e+000 -3.309274e+001 -1.728470e+002
41984000 -3.350038e+001 -7.600190e+001 9.276085e-002 -2.078083e+000 1.011455e-001 -2.182716e+000 -3.297413e+001 -1.747149e+002
42983500 -3.340312e+001 -7.585069e+001 9.587914e-002 -2.151031e+000 1.035646e-001 -2.257009e+000 -3.287190e+001 -1.764833e+002
43983000 -3.331349e+001 -7.550003e+001 9.839710e-002 -2.223298e+000 1.059960e-001 -2.329311e+000 -3.275727e+001 -1.782338e+002
44982500 -3.321400e+001 -7.508231e+001 1.013110e-001 -2.296500e+000 1.083502e-001 -2.402833e+000 -3.264621e+001 -1.799928e+002
45982000 -3.317980e+001 -7.483608e+001 1.054367e-001 -2.501695e+000 1.108577e-001 -2.566667e+000 -3.242844e+001 1.779785e+002
46981500 -3.310718e+001 -7.441187e+001 1.081757e-001 -2.577730e+000 1.138588e-001 -2.640750e+000 -3.236578e+001 1.764710e+002
47981000 -3.299720e+001 -7.393845e+001 1.108429e-001 -2.649585e+000 1.155279e-001 -2.718405e+000 -3.225756e+001 1.748389e+002
48980500 -3.294654e+001 -7.338406e+001 1.132745e-001 -2.723987e+000 1.175388e-001 -2.791177e+000 -3.218992e+001 1.733558e+002
49980000 -3.282061e+001 -7.360120e+001 1.171656e-001 -2.791886e+000 1.208067e-001 -2.860973e+000 -3.209333e+001 1.717540e+002
50979500 -3.277271e+001 -7.235073e+001 1.183339e-001 -2.873599e+000 1.220449e-001 -2.941230e+000 -3.198867e+001 1.702451e+002
51979000 -3.270223e+001 -7.253281e+001 1.222453e-001 -2.942553e+000 1.253110e-001 -3.005650e+000 -3.189551e+001 1.687700e+002
52978500 -3.264399e+001 -7.106110e+001 1.205513e-001 -3.030611e+000 1.239396e-001 -3.101616e+000 -3.183427e+001 1.672509e+002
53978000 -3.259167e+001 -7.058728e+001 1.244564e-001 -3.097459e+000 1.286967e-001 -3.164512e+000 -3.176684e+001 1.658201e+002
54977500 -3.251253e+001 -6.992213e+001 1.269249e-001 -3.172202e+000 1.308069e-001 -3.244485e+000 -3.169563e+001 1.643908e+002
55977000 -3.246406e+001 -6.901913e+001 1.281901e-001 -3.249117e+000 1.315544e-001 -3.316053e+000 -3.164142e+001 1.631097e+002
56976500 -3.242392e+001 -6.842062e+001 1.306436e-001 -3.325060e+000 1.333438e-001 -3.393271e+000 -3.157434e+001 1.616069e+002
57976000 -3.234783e+001 -6.785472e+001 1.322422e-001 -3.400612e+000 1.356995e-001 -3.470397e+000 -3.151982e+001 1.601143e+002
58975500 -3.230478e+001 -6.717490e+001 1.350052e-001 -3.477958e+000 1.370229e-001 -3.547069e+000 -3.143163e+001 1.587690e+002
59975000 -3.224895e+001 -6.641957e+001 1.367268e-001 -3.554241e+000 1.392890e-001 -3.624380e+000 -3.139100e+001 1.574827e+002
60974500 -3.219041e+001 -6.562621e+001 1.373858e-001 -3.628544e+000 1.401660e-001 -3.702529e+000 -3.134707e+001 1.560732e+002
61974000 -3.218913e+001 -6.509161e+001 1.386499e-001 -3.708169e+000 1.416961e-001 -3.776687e+000 -3.132288e+001 1.547310e+002
62973500 -3.212376e+001 -6.426567e+001 1.412608e-001 -3.784394e+000 1.422012e-001 -3.853019e+000 -3.124199e+001 1.533313e+002
63973000 -3.207394e+001 -6.334063e+001 1.430006e-001 -3.862706e+000 1.450047e-001 -3.933006e+000 -3.119960e+001 1.520883e+002
64972500 -3.204414e+001 -6.264861e+001 1.446960e-001 -3.939512e+000 1.461488e-001 -4.008261e+000 -3.117470e+001 1.507807e+002
65972000 -3.198265e+001 -6.181702e+001 1.463186e-001 -4.011566e+000 1.471632e-001 -4.086469e+000 -3.110325e+001 1.493533e+002
66971500 -3.196036e+001 -6.091756e+001 1.486448e-001 -4.087670e+000 1.484889e-001 -4.159217e+000 -3.106902e+001 1.482379e+002
67971000 -3.194185e+001 -6.033677e+001 1.498962e-001 -4.171972e+000 1.501213e-001 -4.246024e+000 -3.105606e+001 1.468861e+002
68970500 -3.190318e+001 -5.935840e+001 1.511244e-001 -4.251285e+000 1.514353e-001 -4.324418e+000 -3.104567e+001 1.456168e+002
69970000 -3.187627e+001 -5.856009e+001 1.528429e-001 -4.328117e+000 1.513079e-001 -4.406265e+000 -3.101637e+001 1.443631e+002
70969500 -3.184772e+001 -5.787766e+001 1.532013e-001 -4.406660e+000 1.530469e-001 -4.479830e+000 -3.097805e+001 1.431205e+002
71969000 -3.183608e+001 -5.774390e+001 1.565672e-001 -4.478143e+000 1.558942e-001 -4.555767e+000 -3.095130e+001 1.419207e+002
72968500 -3.180246e+001 -5.627987e+001 1.566108e-001 -4.555045e+000 1.552346e-001 -4.638019e+000 -3.093924e+001 1.406855e+002
73968000 -3.176926e+001 -5.539163e+001 1.579345e-001 -4.638781e+000 1.513299e-001 -4.735799e+000 -3.091981e+001 1.394986e+002
74967500 -3.176631e+001 -5.456583e+001 1.593657e-001 -4.715355e+000 1.578424e-001 -4.789820e+000 -3.090663e+001 1.383466e+002
75967000 -3.172183e+001 -5.366872e+001 1.605471e-001 -4.791598e+000 1.588874e-001 -4.868932e+000 -3.087503e+001 1.371087e+002
76966500 -3.170745e+001 -5.281234e+001 1.619481e-001 -4.870368e+000 1.607771e-001 -4.948327e+000 -3.086213e+001 1.359103e+002
77966000 -3.168590e+001 -5.198568e+001 1.623343e-001 -4.946498e+000 1.618220e-001 -5.027533e+000 -3.086036e+001 1.346660e+002
78965500 -3.168323e+001 -5.118268e+001 1.631725e-001 -5.025451e+000 1.621359e-001 -5.105471e+000 -3.086465e+001 1.334833e+002
79965000 -3.165981e+001 -5.027393e+001 1.637633e-001 -5.104424e+000 1.635472e-001 -5.182566e+000 -3.085376e+001 1.323658e+002
80964500 -3.167279e+001 -5.017947e+001 1.664815e-001 -5.179039e+000 1.661951e-001 -5.253713e+000 -3.084096e+001 1.311604e+002
81964000 -3.161305e+001 -4.846173e+001 1.693724e-001 -5.253072e+000 1.685944e-001 -5.327910e+000 -3.083175e+001 1.300365e+002
82963500 -3.160378e+001 -4.767119e+001 1.655504e-001 -5.349019e+000 1.689328e-001 -5.406245e+000 -3.083865e+001 1.287461e+002
83963000 -3.157694e+001 -4.665906e+001 1.668221e-001 -5.429020e+000 1.645027e-001 -5.504999e+000 -3.083811e+001 1.277095e+002
84962500 -3.157463e+001 -4.582073e+001 1.699144e-001 -5.497492e+000 1.625111e-001 -5.593051e+000 -3.083449e+001 1.266413e+002
85962000 -3.156874e+001 -4.495370e+001 1.716081e-001 -5.576581e+000 1.643105e-001 -5.671340e+000 -3.083962e+001 1.254893e+002
86961500 -3.153845e+001 -4.410123e+001 1.722012e-001 -5.656797e+000 1.644528e-001 -5.750502e+000 -3.085187e+001 1.243231e+002
87961000 -3.153521e+001 -4.314289e+001 1.733921e-001 -5.735753e+000 1.705974e-001 -5.809977e+000 -3.085501e+001 1.231634e+002
88960500 -3.152726e+001 -4.211378e+001 1.746110e-001 -5.813529e+000 1.714701e-001 -5.888646e+000 -3.087941e+001 1.220508e+002
89960000 -3.151108e+001 -4.120495e+001 1.756526e-001 -5.892110e+000 1.729066e-001 -5.965391e+000 -3.087640e+001 1.211055e+002
90959500 -3.156624e+001 -4.089883e+001 1.746906e-001 -5.976543e+000 1.775505e-001 -6.032091e+000 -3.089598e+001 1.199240e+002
91959000 -3.149534e+001 -3.938923e+001 1.771147e-001 -6.047850e+000 1.784810e-001 -6.106147e+000 -3.090904e+001 1.188396e+002
92958500 -3.148774e+001 -3.845947e+001 1.783666e-001 -6.129184e+000 1.796754e-001 -6.182214e+000 -3.091414e+001 1.177756e+002
93958000 -3.146493e+001 -3.749216e+001 1.787485e-001 -6.207043e+000 1.803821e-001 -6.262129e+000 -3.092964e+001 1.167124e+002
94957500 -3.148257e+001 -3.664997e+001 1.771439e-001 -6.296800e+000 1.736490e-001 -6.370753e+000 -3.097546e+001 1.155214e+002
95957000 -3.146440e+001 -3.569386e+001 1.802414e-001 -6.364342e+000 1.722992e-001 -6.459000e+000 -3.099912e+001 1.144222e+002
96956500 -3.145359e+001 -3.478317e+001 1.818050e-001 -6.445725e+000 1.739067e-001 -6.536770e+000 -3.101339e+001 1.133292e+002
97956000 -3.143938e+001 -3.388538e+001 1.825801e-001 -6.524164e+000 1.745781e-001 -6.616803e+000 -3.104516e+001 1.122631e+002
98955500 -3.145100e+001 -3.300431e+001 1.832616e-001 -6.604945e+000 1.741454e-001 -6.696012e+000 -3.105820e+001 1.112422e+002
99955000 -3.150898e+001 -3.264360e+001 1.829425e-001 -6.689315e+000 1.788591e-001 -6.761975e+000 -3.108262e+001 1.101889e+002
100954500 -3.143145e+001 -3.109329e+001 1.853006e-001 -6.763034e+000 1.856914e-001 -6.815676e+000 -3.111039e+001 1.090998e+002
101954000 -3.144038e+001 -3.020879e+001 1.861249e-001 -6.843657e+000 1.867548e-001 -6.895251e+000 -3.114265e+001 1.079377e+002
102953500 -3.142017e+001 -2.917687e+001 1.868576e-001 -6.924125e+000 1.875060e-001 -6.976339e+000 -3.116897e+001 1.069158e+002
103953000 -3.143918e+001 -2.833999e+001 1.872633e-001 -7.003320e+000 1.838983e-001 -7.072294e+000 -3.121348e+001 1.058587e+002
104952500 -3.144323e+001 -2.733144e+001 1.878532e-001 -7.082847e+000 1.843750e-001 -7.151561e+000 -3.125209e+001 1.047973e+002
105952000 -3.143941e+001 -2.647841e+001 1.892369e-001 -7.161608e+000 1.846955e-001 -7.230176e+000 -3.129077e+001 1.036958e+002
106951500 -3.145182e+001 -2.554714e+001 1.898524e-001 -7.242566e+000 1.846430e-001 -7.309893e+000 -3.132883e+001 1.026464e+002
107951000 -3.135797e+001 -2.407779e+001 1.898162e-001 -7.324190e+000 1.845439e-001 -7.393349e+000 -3.137951e+001 1.015838e+002
108950500 -3.137114e+001 -2.309913e+001 1.905219e-001 -7.403898e+000 1.852875e-001 -7.472909e+000 -3.142166e+001 1.006020e+002
109950000 -3.144995e+001 -2.261693e+001 1.926814e-001 -7.478352e+000 1.868454e-001 -7.547943e+000 -3.146274e+001 9.966870e+001
110949500 -3.143038e+001 -2.161032e+001 1.941825e-001 -7.559038e+000 1.874259e-001 -7.629028e+000 -3.151688e+001 9.857973e+001
111949000 -3.144518e+001 -2.064090e+001 1.946311e-001 -7.637692e+000 1.880818e-001 -7.707944e+000 -3.154752e+001 9.752673e+001
112948500 -3.144295e+001 -1.968155e+001 1.953772e-001 -7.717741e+000 1.886352e-001 -7.787232e+000 -3.160842e+001 9.638026e+001
113948000 -3.146980e+001 -1.870543e+001 1.958557e-001 -7.797115e+000 1.897114e-001 -7.868505e+000 -3.165965e+001 9.539965e+001
114947500 -3.147212e+001 -1.783689e+001 1.965804e-001 -7.878214e+000 1.899071e-001 -7.947839e+000 -3.170046e+001 9.445843e+001
115947000 -3.147988e+001 -1.691001e+001 1.962696e-001 -7.958237e+000 1.913749e-001 -8.027273e+000 -3.174240e+001 9.332728e+001
116946500 -3.148891e+001 -1.593275e+001 1.963582e-001 -8.037936e+000 1.911811e-001 -8.107426e+000 -3.179463e+001 9.235434e+001
117946000 -3.149125e+001 -1.500737e+001 1.979064e-001 -8.117736e+000 1.921273e-001 -8.188218e+000 -3.184271e+001 9.128008e+001
118945500 -3.150555e+001 -1.400578e+001 1.985662e-001 -8.197543e+000 1.929813e-001 -8.267415e+000 -3.189908e+001 9.027406e+001
119945000 -3.150014e+001 -1.302291e+001 1.984062e-001 -8.279193e+000 1.939256e-001 -8.346371e+000 -3.194674e+001 8.919839e+001
120944500 -3.153022e+001 -1.203294e+001 1.992473e-001 -8.359029e+000 1.942361e-001 -8.426848e+000 -3.200166e+001 8.814439e+001
121944000 -3.152860e+001 -1.109654e+001 1.998349e-001 -8.439386e+000 1.943102e-001 -8.507247e+000 -3.205986e+001 8.705743e+001
122943500 -3.154841e+001 -1.010322e+001 2.006104e-001 -8.520455e+000 1.953003e-001 -8.585980e+000 -3.211922e+001 8.630924e+001
123943000 -3.155031e+001 -9.166348e+000 2.015247e-001 -8.600112e+000 1.961427e-001 -8.666114e+000 -3.216768e+001 8.513043e+001
124942500 -3.156064e+001 -8.074306e+000 2.021704e-001 -8.678967e+000 1.966613e-001 -8.745762e+000 -3.223876e+001 8.404007e+001
125942000 -3.157939e+001 -7.127671e+000 2.028551e-001 -8.758777e+000 1.970568e-001 -8.825416e+000 -3.228669e+001 8.287376e+001
126941500 -3.159470e+001 -6.086782e+000 2.038150e-001 -8.840113e+000 1.980355e-001 -8.905924e+000 -3.234885e+001 8.203863e+001
127941000 -3.162363e+001 -5.072043e+000 2.050552e-001 -8.919914e+000 1.980179e-001 -8.986759e+000 -3.240227e+001 8.081602e+001
128940500 -3.161529e+001 -4.074582e+000 2.056496e-001 -8.999992e+000 1.987317e-001 -9.064868e+000 -3.245975e+001 7.973567e+001
129940000 -3.162823e+001 -3.033534e+000 2.064834e-001 -9.079014e+000 1.994987e-001 -9.145835e+000 -3.253471e+001 7.879623e+001
130939500 -3.162695e+001 -2.085872e+000 2.060076e-001 -9.159702e+000 2.001065e-001 -9.224945e+000 -3.258418e+001 7.776253e+001
131939000 -3.165734e+001 -1.008987e+000 2.073720e-001 -9.240883e+000 2.000135e-001 -9.305179e+000 -3.263927e+001 7.682073e+001
132938500 -3.167150e+001 5.958291e-002 2.068948e-001 -9.321116e+000 2.008918e-001 -9.384857e+000 -3.271806e+001 7.559050e+001
133938000 -3.169392e+001 1.099308e+000 2.085753e-001 -9.401192e+000 2.016287e-001 -9.467030e+000 -3.276758e+001 7.457906e+001
134937500 -3.170978e+001 2.139910e+000 2.089717e-001 -9.482277e+000 2.022690e-001 -9.547078e+000 -3.283196e+001 7.339485e+001
135937000 -3.170414e+001 3.061435e+000 2.092158e-001 -9.562087e+000 2.028316e-001 -9.627464e+000 -3.287865e+001 7.229024e+001
136936500 -3.174592e+001 4.194737e+000 2.101824e-001 -9.643939e+000 2.029831e-001 -9.708068e+000 -3.294492e+001 7.120151e+001
137936000 -3.173277e+001 5.178861e+000 2.109490e-001 -9.723827e+000 2.033989e-001 -9.788068e+000 -3.300563e+001 7.009052e+001
138935500 -3.176489e+001 6.309539e+000 2.120757e-001 -9.804941e+000 2.041247e-001 -9.869678e+000 -3.307382e+001 6.905824e+001
139935000 -3.176638e+001 7.316568e+000 2.121812e-001 -9.887218e+000 2.050836e-001 -9.948565e+000 -3.313539e+001 6.809667e+001
140934500 -3.176145e+001 8.353890e+000 2.131695e-001 -9.967458e+000 2.050816e-001 -1.003025e+001 -3.319400e+001 6.698869e+001
141934000 -3.178958e+001 9.438413e+000 2.135238e-001 -1.005026e+001 2.060512e-001 -1.011010e+001 -3.325777e+001 6.569248e+001
142933500 -3.179790e+001 1.052983e+001 2.147689e-001 -1.012993e+001 2.058164e-001 -1.019179e+001 -3.331334e+001 6.465271e+001
143933000 -3.179916e+001 1.155335e+001 2.145611e-001 -1.021052e+001 2.069811e-001 -1.027216e+001 -3.338149e+001 6.348547e+001
144932500 -3.180129e+001 1.264460e+001 2.155189e-001 -1.029083e+001 2.074687e-001 -1.035202e+001 -3.345020e+001 6.246494e+001
145932000 -3.182297e+001 1.367374e+001 2.155880e-001 -1.037294e+001 2.077167e-001 -1.043355e+001 -3.350962e+001 6.143509e+001
146931500 -3.182739e+001 1.481482e+001 2.163542e-001 -1.045444e+001 2.086807e-001 -1.051413e+001 -3.356234e+001 6.020630e+001
147931000 -3.181578e+001 1.590121e+001 2.168168e-001 -1.053547e+001 2.097352e-001 -1.059597e+001 -3.363512e+001 5.910807e+001
148930500 -3.183172e+001 1.702447e+001 2.176657e-001 -1.061685e+001 2.104816e-001 -1.067806e+001 -3.368869e+001 5.793745e+001
149930000 -3.184197e+001 1.807651e+001 2.183979e-001 -1.069759e+001 2.114824e-001 -1.075814e+001 -3.374498e+001 5.684517e+001
150929500 -3.182639e+001 1.912937e+001 2.190597e-001 -1.078141e+001 2.112064e-001 -1.084013e+001 -3.381364e+001 5.582950e+001
151929000 -3.183920e+001 2.023817e+001 2.201664e-001 -1.086364e+001 2.112383e-001 -1.092115e+001 -3.386769e+001 5.465466e+001
152928500 -3.183159e+001 2.125204e+001 2.203823e-001 -1.094454e+001 2.117258e-001 -1.100459e+001 -3.392564e+001 5.360667e+001
153928000 -3.182259e+001 2.227162e+001 2.205450e-001 -1.102719e+001 2.122262e-001 -1.108597e+001 -3.398595e+001 5.252598e+001
154927500 -3.180814e+001 2.340900e+001 2.215264e-001 -1.110991e+001 2.130831e-001 -1.116814e+001 -3.403521e+001 5.138037e+001
155927000 -3.180556e+001 2.445296e+001 2.218466e-001 -1.119206e+001 2.128352e-001 -1.124989e+001 -3.408883e+001 5.020557e+001
156926500 -3.179398e+001 2.550847e+001 2.223195e-001 -1.127397e+001 2.135946e-001 -1.133179e+001 -3.414232e+001 4.906890e+001
157926000 -3.178097e+001 2.649780e+001 2.229905e-001 -1.135872e+001 2.131127e-001 -1.141409e+001 -3.419889e+001 4.799993e+001
158925500 -3.178367e+001 2.762554e+001 2.225798e-001 -1.144242e+001 2.137400e-001 -1.149723e+001 -3.424948e+001 4.676275e+001
159925000 -3.176378e+001 2.865893e+001 2.234587e-001 -1.152569e+001 2.145579e-001 -1.157896e+001 -3.430853e+001 4.579620e+001
160924500 -3.175100e+001 2.974957e+001 2.248094e-001 -1.160852e+001 2.149402e-001 -1.166354e+001 -3.435288e+001 4.465203e+001
161924000 -3.173232e+001 3.078146e+001 2.249930e-001 -1.169231e+001 2.154586e-001 -1.174550e+001 -3.439552e+001 4.346703e+001
162923500 -3.169607e+001 3.173928e+001 2.257810e-001 -1.177682e+001 2.153894e-001 -1.182939e+001 -3.444712e+001 4.232481e+001
163923000 -3.168450e+001 3.276509e+001 2.261203e-001 -1.186024e+001 2.161519e-001 -1.191342e+001 -3.448177e+001 4.130238e+001
